T1EB0 000:021.582   SEGGER J-Link V6.54c Log File
T1EB0 000:021.692   DLL Compiled: Nov  7 2019 17:01:02
T1EB0 000:021.702   Logging started @ 2020-02-06 09:09
T1EB0 000:021.713 JLINK_SetWarnOutHandler(...)
T1EB0 000:021.725 - 0.016ms
T1EB0 000:021.736 JLINK_OpenEx(...)
T1EB0 000:026.908   Firmware: J-Link V9 compiled May 17 2019 09:50:41
T1EB0 000:046.550   Hardware: V9.30
T1EB0 000:046.642   S/N: 59303408
T1EB0 000:046.656   OEM: SEGGER
T1EB0 000:046.668   Feature(s): GDB
T1EB0 000:053.894   TELNET listener socket opened on port 19021
T1EB0 000:061.100   WEBSRV Starting webserver
T1EB0 000:061.855   WEBSRV Webserver running on local port 19080
T1EB0 000:061.897 - 40.167ms returns "O.K."
T1EB0 000:061.919 JLINK_GetEmuCaps()
T1EB0 000:061.935 - 0.020ms returns 0xB9FF7BBF
T1EB0 000:061.948 JLINK_TIF_GetAvailable(...)
T1EB0 000:063.499 - 1.561ms
T1EB0 000:063.520 JLINK_SetErrorOutHandler(...)
T1EB0 000:063.534 - 0.020ms
T1EB0 000:063.559 JLINK_ExecCommand("ProjectFile = "F:\Nordic\Vladimir_135-nrf52832_base_project-8df8134e5a5b\JLinkSettings.ini"", ...). 
T1EB0 000:065.611   Ref file found at: C:\Keil_v5\ARM\Segger\JLinkDevices.ref
T1EB0 000:065.739   XML referenced by ref file: C:\Program Files (x86)\SEGGER\JLink\JLinkDevices.xml
T1EB0 000:067.393   C:\Program Files (x86)\SEGGER\JLink\JLinkDevices.xml evaluated successfully.
T1EB0 000:175.538 - 112.003ms returns 0x00
T1EB0 000:175.611 JLINK_ExecCommand("Device = nRF52832_xxAA", ...). 
T1EB0 000:176.312   Device "NRF52832_XXAA" selected.
T1EB0 000:178.718 - 3.119ms returns 0x00
T1EB0 000:178.769 JLINK_ExecCommand("DisableConnectionTimeout", ...). 
T1EB0 000:178.793 - 0.017ms returns 0x01
T1EB0 000:178.809 JLINK_GetHardwareVersion()
T1EB0 000:178.819 - 0.014ms returns 0x16B48
T1EB0 000:178.849 JLINK_GetDLLVersion()  returns 65403
T1EB0 000:178.863 JLINK_GetFirmwareString(...)
T1EB0 000:178.872 - 0.013ms
T1EB0 000:178.902 JLINK_GetDLLVersion()  returns 65403
T1EB0 000:178.912 JLINK_GetCompileDateTime()
T1EB0 000:178.921 - 0.013ms
T1EB0 000:178.937 JLINK_GetFirmwareString(...)
T1EB0 000:178.946 - 0.013ms
T1EB0 000:178.959 JLINK_GetHardwareVersion()
T1EB0 000:178.969 - 0.013ms returns 0x16B48
T1EB0 000:178.997 JLINK_TIF_Select(JLINKARM_TIF_SWD)
T1EB0 000:183.355 - 4.375ms returns 0x00
T1EB0 000:183.390 JLINK_SetSpeed(20000)
T1EB0 000:184.357 - 0.974ms
T1EB0 000:184.373 JLINK_GetId()
T1EB0 000:185.388   InitTarget() start
T1EB0 000:185.406    J-Link Script File: Executing InitTarget()
T1EB0 000:191.386   InitTarget() end
T1EB0 000:301.005   Found SW-DP with ID 0x2BA01477
T1EB0 000:305.991   SWD speed too high. Reduced from 12000 kHz to 8100 kHz for stability
T1EB0 000:313.011   Scanning AP map to find all available APs
T1EB0 000:325.030   AP[2]: Stopped AP scan as end of AP map has been reached
T1EB0 000:325.084   AP[0]: AHB-AP (IDR: 0x24770011)
T1EB0 000:325.102   AP[1]: JTAG-AP (IDR: 0x02880000)
T1EB0 000:325.119   Iterating through AP map to find AHB-AP to use
T1EB0 000:343.127   AP[0]: Core found
T1EB0 000:343.249   AP[0]: AHB-AP ROM base: 0xE00FF000
T1EB0 000:350.984   CPUID register: 0x410FC241. Implementer code: 0x41 (ARM)
T1EB0 000:351.027   Found Cortex-M4 r0p1, Little endian.
T1EB0 000:453.932    -- Max. mem block: 0x00010D70
T1EB0 000:454.034    -- CPU_ReadMem(4 bytes @ 0xE000EDF0)
T1EB0 000:455.928    -- CPU_WriteMem(4 bytes @ 0xE000EDF0)
T1EB0 000:456.932    -- CPU_ReadMem(4 bytes @ 0xE0002000)
T1EB0 000:457.990   FPUnit: 6 code (BP) slots and 2 literal slots
T1EB0 000:458.023    -- CPU_ReadMem(4 bytes @ 0xE000EDFC)
T1EB0 000:458.937    -- CPU_WriteMem(4 bytes @ 0xE000EDFC)
T1EB0 000:460.008    -- CPU_ReadMem(4 bytes @ 0xE0001000)
T1EB0 000:461.021    -- CPU_WriteMem(4 bytes @ 0xE0001000)
T1EB0 000:462.011    -- CPU_ReadMem(4 bytes @ 0xE000ED88)
T1EB0 000:463.008    -- CPU_WriteMem(4 bytes @ 0xE000ED88)
T1EB0 000:463.982    -- CPU_ReadMem(4 bytes @ 0xE000ED88)
T1EB0 000:464.927    -- CPU_WriteMem(4 bytes @ 0xE000ED88)
T1EB0 000:465.955   CoreSight components:
T1EB0 000:465.985   ROMTbl[0] @ E00FF000
T1EB0 000:466.041    -- CPU_ReadMem(16 bytes @ 0xE00FF000)
T1EB0 000:466.927    -- CPU_ReadMem(16 bytes @ 0xE000EFF0)
T1EB0 000:467.926    -- CPU_ReadMem(16 bytes @ 0xE000EFE0)
T1EB0 000:468.940   ROMTbl[0][0]: E000E000, CID: B105E00D, PID: 000BB00C SCS-M7
T1EB0 000:468.963    -- CPU_ReadMem(16 bytes @ 0xE0001FF0)
T1EB0 000:469.926    -- CPU_ReadMem(16 bytes @ 0xE0001FE0)
T1EB0 000:471.046   ROMTbl[0][1]: E0001000, CID: B105E00D, PID: 003BB002 DWT
T1EB0 000:471.069    -- CPU_ReadMem(16 bytes @ 0xE0002FF0)
T1EB0 000:471.925    -- CPU_ReadMem(16 bytes @ 0xE0002FE0)
T1EB0 000:472.933   ROMTbl[0][2]: E0002000, CID: B105E00D, PID: 002BB003 FPB
T1EB0 000:472.956    -- CPU_ReadMem(16 bytes @ 0xE0000FF0)
T1EB0 000:473.937    -- CPU_ReadMem(16 bytes @ 0xE0000FE0)
T1EB0 000:474.985   ROMTbl[0][3]: E0000000, CID: B105E00D, PID: 003BB001 ITM
T1EB0 000:475.028    -- CPU_ReadMem(16 bytes @ 0xE00FF010)
T1EB0 000:475.955    -- CPU_ReadMem(16 bytes @ 0xE0040FF0)
T1EB0 000:477.007    -- CPU_ReadMem(16 bytes @ 0xE0040FE0)
T1EB0 000:478.070   ROMTbl[0][4]: E0040000, CID: B105900D, PID: 000BB9A1 TPIU
T1EB0 000:478.112    -- CPU_ReadMem(16 bytes @ 0xE0041FF0)
T1EB0 000:479.047    -- CPU_ReadMem(16 bytes @ 0xE0041FE0)
T1EB0 000:480.038   ROMTbl[0][5]: E0041000, CID: B105900D, PID: 000BB925 ETM
T1EB0 000:480.928 - 296.571ms   returns 0x2BA01477
T1EB0 000:480.961 JLINK_GetDLLVersion()  returns 65403
T1EB0 000:480.977 JLINK_CORE_GetFound()
T1EB0 000:480.988 - 0.015ms returns 0xE0000FF
T1EB0 000:481.004 JLINK_GetDebugInfo(0x100 = JLINKARM_ROM_TABLE_ADDR_INDEX)
T1EB0 000:481.015   Value=0xE00FF000
T1EB0 000:481.028 - 0.027ms returns 0x00
T1EB0 000:481.094 JLINK_GetDebugInfo(0x100 = JLINKARM_ROM_TABLE_ADDR_INDEX)
T1EB0 000:481.115   Value=0xE00FF000
T1EB0 000:481.133 - 0.045ms returns 0x00
T1EB0 000:481.148 JLINK_GetDebugInfo(0x101 = JLINKARM_DEBUG_INFO_ETM_ADDR_INDEX)
T1EB0 000:481.161   Value=0xE0041000
T1EB0 000:481.173 - 0.029ms returns 0x00
T1EB0 000:481.189   JLINK_ReadMemEx(0xE0041FD0, 0x0020 Bytes, ..., Flags = 0x02000004)
T1EB0 000:481.219    -- CPU_ReadMem(32 bytes @ 0xE0041FD0)
T1EB0 000:481.935   Data:  04 00 00 00 00 00 00 00 00 00 00 00 00 00 00 00 ...
T1EB0 000:481.956 - 0.775ms returns 0x20
T1EB0 000:481.972 JLINK_GetDebugInfo(0x102 = JLINKARM_DEBUG_INFO_MTB_ADDR_INDEX)
T1EB0 000:481.986   Value=0x00000000
T1EB0 000:482.001 - 0.033ms returns 0x00
T1EB0 000:482.011 JLINK_GetDebugInfo(0x103 = JLINKARM_DEBUG_INFO_TPIU_ADDR_INDEX)
T1EB0 000:482.020   Value=0xE0040000
T1EB0 000:482.032 - 0.025ms returns 0x00
T1EB0 000:482.042 JLINK_GetDebugInfo(0x104 = JLINKARM_DEBUG_INFO_ITM_ADDR_INDEX)
T1EB0 000:482.051   Value=0xE0000000
T1EB0 000:482.063 - 0.025ms returns 0x00
T1EB0 000:482.073 JLINK_GetDebugInfo(0x105 = JLINKARM_DEBUG_INFO_DWT_ADDR_INDEX)
T1EB0 000:482.082   Value=0xE0001000
T1EB0 000:482.093 - 0.025ms returns 0x00
T1EB0 000:482.103 JLINK_GetDebugInfo(0x106 = JLINKARM_DEBUG_INFO_FPB_ADDR_INDEX)
T1EB0 000:482.112   Value=0xE0002000
T1EB0 000:482.124 - 0.025ms returns 0x00
T1EB0 000:482.133 JLINK_GetDebugInfo(0x107 = JLINKARM_DEBUG_INFO_NVIC_ADDR_INDEX)
T1EB0 000:482.142   Value=0xE000E000
T1EB0 000:482.154 - 0.025ms returns 0x00
T1EB0 000:482.164 JLINK_GetDebugInfo(0x10C = JLINKARM_DEBUG_INFO_DBG_ADDR_INDEX)
T1EB0 000:482.172   Value=0xE000EDF0
T1EB0 000:482.184 - 0.025ms returns 0x00
T1EB0 000:482.195   JLINK_ReadMemU32(0xE000EF40, 0x0001 Items, ...)
T1EB0 000:482.211    -- CPU_ReadMem(4 bytes @ 0xE000EF40)
T1EB0 000:482.931   Data:  21 00 11 10
T1EB0 000:482.952 - 0.764ms returns 1
T1EB0 000:482.968   JLINK_ReadMemU32(0xE000EF44, 0x0001 Items, ...)
T1EB0 000:482.990    -- CPU_ReadMem(4 bytes @ 0xE000EF44)
T1EB0 000:483.925   Data:  11 00 00 11
T1EB0 000:483.947 - 0.985ms returns 1
T1EB0 000:483.963   JLINK_ReadMemU32(0xE000ED00, 0x0001 Items, ...)
T1EB0 000:483.985    -- CPU_ReadMem(4 bytes @ 0xE000ED00)
T1EB0 000:484.925   Data:  41 C2 0F 41
T1EB0 000:484.951    - CPUID
T1EB0 000:484.970 - 1.014ms returns 1
T1EB0 000:484.986 JLINK_GetDebugInfo(0x10F = JLINKARM_DEBUG_INFO_HAS_CORTEX_M_SECURITY_EXT_INDEX)
T1EB0 000:485.001   Value=0x00000000
T1EB0 000:485.016 - 0.034ms returns 0x00
T1EB0 000:485.028 JLINK_SetResetType(JLINKARM_CM3_RESET_TYPE_NORMAL)
T1EB0 000:485.037 - 0.013ms returns JLINKARM_CM3_RESET_TYPE_NORMAL
T1EB0 000:485.047 JLINK_Reset()
T1EB0 000:485.067   CPU is running
T1EB0 000:485.081    -- CPU_WriteMem(4 bytes @ 0xE000EDF0)
T1EB0 000:485.924   CPU is running
T1EB0 000:485.948    -- CPU_WriteMem(4 bytes @ 0xE000EDFC)
T1EB0 000:486.991   Reset: Halt core after reset via DEMCR.VC_CORERESET.
T1EB0 000:488.933   Reset: Reset device via AIRCR.SYSRESETREQ.
T1EB0 000:488.957   CPU is running
T1EB0 000:488.977    -- CPU_WriteMem(4 bytes @ 0xE000ED0C)
T1EB0 000:544.153    -- CPU_ReadMem(4 bytes @ 0xE000EDF0)
T1EB0 000:545.114    -- CPU_ReadMem(4 bytes @ 0xE000EDF0)
T1EB0 000:546.116   CPU is running
T1EB0 000:546.139    -- CPU_WriteMem(4 bytes @ 0xE000EDF0)
T1EB0 000:547.037   CPU is running
T1EB0 000:547.086    -- CPU_WriteMem(4 bytes @ 0xE000EDFC)
T1EB0 000:552.490    -- CPU_ReadMem(4 bytes @ 0xE000EDF0)
T1EB0 000:556.974    -- CPU_WriteMem(4 bytes @ 0xE0002000)
T1EB0 000:557.965    -- CPU_ReadMem(4 bytes @ 0xE000EDFC)
T1EB0 000:559.011    -- CPU_ReadMem(4 bytes @ 0xE0001000)
T1EB0 000:560.077 - 75.063ms
T1EB0 000:560.140 JLINK_ReadReg(R15 (PC))
T1EB0 000:560.156 - 0.022ms returns 0x00000A80
T1EB0 000:560.168 JLINK_ReadReg(XPSR)
T1EB0 000:560.179 - 0.015ms returns 0x01000000
T1EB0 000:560.192 JLINK_Halt()
T1EB0 000:560.201 - 0.014ms returns 0x00
T1EB0 000:560.216   JLINK_ReadMemU32(0xE000EDF0, 0x0001 Items, ...)
T1EB0 000:560.244    -- CPU_ReadMem(4 bytes @ 0xE000EDF0)
T1EB0 000:560.963   Data:  03 00 03 00
T1EB0 000:561.011    - DHCSR
T1EB0 000:561.049 - 0.841ms returns 1
T1EB0 000:561.064   JLINK_WriteU32(0xE000EDF0, 0xA05F0003)
T1EB0 000:561.080    - DHCSR
T1EB0 000:561.133    -- CPU_WriteMem(4 bytes @ 0xE000EDF0)
T1EB0 000:562.036 - 0.982ms returns 0
T1EB0 000:562.056   JLINK_WriteU32(0xE000EDFC, 0x01000000)
T1EB0 000:562.075    - DEMCR
T1EB0 000:562.098    -- CPU_WriteMem(4 bytes @ 0xE000EDFC)
T1EB0 000:562.964 - 0.928ms returns 0
T1EB0 000:563.071 JLINK_GetHWStatus(...)
T1EB0 000:563.962 - 0.911ms returns 0x00
T1EB0 000:564.037 JLINK_GetNumBPUnits(Type = 0xFFFFFF00)
T1EB0 000:564.063 - 0.041ms returns 0x06
T1EB0 000:564.084 JLINK_GetNumBPUnits(Type = 0xF0)
T1EB0 000:564.093 - 0.012ms returns 0x2000
T1EB0 000:564.102 JLINK_GetNumWPUnits()
T1EB0 000:564.110 - 0.012ms returns 0x04
T1EB0 000:564.129 JLINK_GetSpeed()
T1EB0 000:564.139 - 0.013ms returns 0x1770
T1EB0 000:564.155   JLINK_ReadMemU32(0xE000E004, 0x0001 Items, ...)
T1EB0 000:564.172    -- CPU_ReadMem(4 bytes @ 0xE000E004)
T1EB0 000:564.949   Data:  01 00 00 00
T1EB0 000:564.971 - 0.820ms returns 1
T1EB0 000:564.984   JLINK_ReadMemU32(0xE000E004, 0x0001 Items, ...)
T1EB0 000:565.011    -- CPU_ReadMem(4 bytes @ 0xE000E004)
T1EB0 000:565.958   Data:  01 00 00 00
T1EB0 000:565.984 - 1.006ms returns 1
T1EB0 000:566.001 JLINK_WriteMemEx(0xE0001000, 0x001C Bytes, ..., Flags = 0x02000004)
T1EB0 000:566.016   Data:  01 00 00 00 00 00 00 00 00 00 00 00 00 00 00 00 ...
T1EB0 000:566.486    -- CPU_WriteMem(28 bytes @ 0xE0001000)
T1EB0 000:567.942 - 1.951ms returns 0x1C
T1EB0 000:567.967 JLINK_ReadReg(R15 (PC))
T1EB0 000:567.984 - 0.025ms returns 0x00000A80
T1EB0 000:568.000 JLINK_ReadReg(XPSR)
T1EB0 000:568.013 - 0.017ms returns 0x01000000
T1EB0 000:655.431 JLINK_SetResetType(JLINKARM_CM3_RESET_TYPE_NORMAL)
T1EB0 000:655.476 - 0.049ms returns JLINKARM_CM3_RESET_TYPE_NORMAL
T1EB0 000:655.487 JLINK_Reset()
T1EB0 000:655.512    -- CPU_WriteMem(4 bytes @ 0xE000EDF0)
T1EB0 000:656.890    -- CPU_WriteMem(4 bytes @ 0xE000EDFC)
T1EB0 000:657.926   Reset: Halt core after reset via DEMCR.VC_CORERESET.
T1EB0 000:660.023   Reset: Reset device via AIRCR.SYSRESETREQ.
T1EB0 000:660.086    -- CPU_WriteMem(4 bytes @ 0xE000ED0C)
T1EB0 000:715.051    -- CPU_ReadMem(4 bytes @ 0xE000EDF0)
T1EB0 000:716.025    -- CPU_ReadMem(4 bytes @ 0xE000EDF0)
T1EB0 000:717.025    -- CPU_WriteMem(4 bytes @ 0xE000EDF0)
T1EB0 000:718.019    -- CPU_WriteMem(4 bytes @ 0xE000EDFC)
T1EB0 000:723.500    -- CPU_ReadMem(4 bytes @ 0xE000EDF0)
T1EB0 000:727.982    -- CPU_WriteMem(4 bytes @ 0xE0002000)
T1EB0 000:728.912    -- CPU_ReadMem(4 bytes @ 0xE000EDFC)
T1EB0 000:729.904    -- CPU_ReadMem(4 bytes @ 0xE0001000)
T1EB0 000:730.906 - 75.428ms
T1EB0 000:730.981 JLINK_ReadReg(R15 (PC))
T1EB0 000:731.001 - 0.026ms returns 0x00000A80
T1EB0 000:731.017 JLINK_ReadReg(XPSR)
T1EB0 000:731.031 - 0.021ms returns 0x01000000
T1EB0 000:731.082 JLINK_ReadReg(R0)
T1EB0 000:731.094 - 0.016ms returns 0x00000000
T1EB0 000:731.105 JLINK_ReadReg(R1)
T1EB0 000:731.114 - 0.014ms returns 0x00000000
T1EB0 000:731.124 JLINK_ReadReg(R2)
T1EB0 000:731.134 - 0.013ms returns 0x00000000
T1EB0 000:731.144 JLINK_ReadReg(R3)
T1EB0 000:731.153 - 0.014ms returns 0x00000000
T1EB0 000:731.163 JLINK_ReadReg(R4)
T1EB0 000:731.173 - 0.013ms returns 0x00000000
T1EB0 000:731.183 JLINK_ReadReg(R5)
T1EB0 000:731.192 - 0.013ms returns 0x00000000
T1EB0 000:731.202 JLINK_ReadReg(R6)
T1EB0 000:731.212 - 0.013ms returns 0x00000000
T1EB0 000:731.231 JLINK_ReadReg(R7)
T1EB0 000:731.240 - 0.013ms returns 0x00000000
T1EB0 000:731.250 JLINK_ReadReg(R8)
T1EB0 000:731.268 - 0.022ms returns 0x00000000
T1EB0 000:731.278 JLINK_ReadReg(R9)
T1EB0 000:731.287 - 0.013ms returns 0x00000000
T1EB0 000:731.297 JLINK_ReadReg(R10)
T1EB0 000:731.306 - 0.013ms returns 0x00000000
T1EB0 000:731.316 JLINK_ReadReg(R11)
T1EB0 000:731.325 - 0.013ms returns 0x00000000
T1EB0 000:731.335 JLINK_ReadReg(R12)
T1EB0 000:731.343 - 0.013ms returns 0x00000000
T1EB0 000:731.353 JLINK_ReadReg(R13 (SP))
T1EB0 000:731.362 - 0.013ms returns 0x20000400
T1EB0 000:731.373 JLINK_ReadReg(R14)
T1EB0 000:731.382 - 0.013ms returns 0xFFFFFFFF
T1EB0 000:731.392 JLINK_ReadReg(R15 (PC))
T1EB0 000:731.401 - 0.013ms returns 0x00000A80
T1EB0 000:731.410 JLINK_ReadReg(XPSR)
T1EB0 000:731.419 - 0.013ms returns 0x01000000
T1EB0 000:731.429 JLINK_ReadReg(MSP)
T1EB0 000:731.438 - 0.013ms returns 0x20000400
T1EB0 000:731.448 JLINK_ReadReg(PSP)
T1EB0 000:731.457 - 0.013ms returns 0x00000000
T1EB0 000:731.497 JLINK_ReadReg(CFBP)
T1EB0 000:731.511 - 0.019ms returns 0x00000000
T1EB0 000:731.522 JLINK_ReadReg(FPSCR)
T1EB0 000:736.638 - 5.133ms returns 0x00000000
T1EB0 000:736.663 JLINK_ReadReg(FPS0)
T1EB0 000:736.674 - 0.016ms returns 0x00000000
T1EB0 000:736.687 JLINK_ReadReg(FPS1)
T1EB0 000:736.698 - 0.016ms returns 0x00000000
T1EB0 000:736.708 JLINK_ReadReg(FPS2)
T1EB0 000:736.717 - 0.014ms returns 0x00000000
T1EB0 000:736.727 JLINK_ReadReg(FPS3)
T1EB0 000:736.737 - 0.013ms returns 0x00000000
T1EB0 000:736.747 JLINK_ReadReg(FPS4)
T1EB0 000:736.756 - 0.013ms returns 0x00000000
T1EB0 000:736.766 JLINK_ReadReg(FPS5)
T1EB0 000:736.775 - 0.014ms returns 0x00000000
T1EB0 000:736.786 JLINK_ReadReg(FPS6)
T1EB0 000:736.795 - 0.013ms returns 0x00000000
T1EB0 000:736.805 JLINK_ReadReg(FPS7)
T1EB0 000:736.815 - 0.013ms returns 0x00000000
T1EB0 000:736.825 JLINK_ReadReg(FPS8)
T1EB0 000:736.834 - 0.013ms returns 0x00000000
T1EB0 000:736.844 JLINK_ReadReg(FPS9)
T1EB0 000:736.854 - 0.014ms returns 0x00000000
T1EB0 000:736.864 JLINK_ReadReg(FPS10)
T1EB0 000:736.874 - 0.014ms returns 0x00000000
T1EB0 000:736.884 JLINK_ReadReg(FPS11)
T1EB0 000:736.895 - 0.015ms returns 0x00000000
T1EB0 000:736.906 JLINK_ReadReg(FPS12)
T1EB0 000:736.916 - 0.014ms returns 0x00000000
T1EB0 000:736.927 JLINK_ReadReg(FPS13)
T1EB0 000:736.937 - 0.015ms returns 0x00000000
T1EB0 000:736.948 JLINK_ReadReg(FPS14)
T1EB0 000:736.957 - 0.013ms returns 0x00000000
T1EB0 000:736.968 JLINK_ReadReg(FPS15)
T1EB0 000:736.977 - 0.014ms returns 0x00000000
T1EB0 000:736.988 JLINK_ReadReg(FPS16)
T1EB0 000:736.997 - 0.014ms returns 0x00000000
T1EB0 000:737.008 JLINK_ReadReg(FPS17)
T1EB0 000:737.017 - 0.014ms returns 0x00000000
T1EB0 000:737.027 JLINK_ReadReg(FPS18)
T1EB0 000:737.037 - 0.014ms returns 0x00000000
T1EB0 000:737.048 JLINK_ReadReg(FPS19)
T1EB0 000:737.058 - 0.015ms returns 0x00000000
T1EB0 000:737.160 JLINK_ReadReg(FPS20)
T1EB0 000:737.177 - 0.021ms returns 0x00000000
T1EB0 000:737.188 JLINK_ReadReg(FPS21)
T1EB0 000:737.198 - 0.015ms returns 0x00000000
T1EB0 000:737.209 JLINK_ReadReg(FPS22)
T1EB0 000:737.219 - 0.014ms returns 0x00000000
T1EB0 000:737.230 JLINK_ReadReg(FPS23)
T1EB0 000:737.239 - 0.014ms returns 0x00000000
T1EB0 000:737.250 JLINK_ReadReg(FPS24)
T1EB0 000:737.258 - 0.013ms returns 0x00000000
T1EB0 000:737.269 JLINK_ReadReg(FPS25)
T1EB0 000:737.278 - 0.013ms returns 0x00000000
T1EB0 000:737.288 JLINK_ReadReg(FPS26)
T1EB0 000:737.297 - 0.013ms returns 0x00000000
T1EB0 000:737.307 JLINK_ReadReg(FPS27)
T1EB0 000:737.316 - 0.013ms returns 0x00000000
T1EB0 000:737.326 JLINK_ReadReg(FPS28)
T1EB0 000:737.335 - 0.013ms returns 0x00000000
T1EB0 000:737.346 JLINK_ReadReg(FPS29)
T1EB0 000:737.355 - 0.013ms returns 0x00000000
T1EB0 000:737.365 JLINK_ReadReg(FPS30)
T1EB0 000:737.374 - 0.013ms returns 0x00000000
T1EB0 000:737.384 JLINK_ReadReg(FPS31)
T1EB0 000:737.394 - 0.014ms returns 0x00000000
T1EB0 000:737.407   JLINK_ReadMemU32(0xE0001004, 0x0001 Items, ...)
T1EB0 000:737.426   Data:  00 00 00 00
T1EB0 000:737.439    - DWT_CYCCNT
T1EB0 000:737.451 - 0.049ms returns 1
T1EB0 000:737.510   JLINK_ReadMemEx(0x00000A80, 0x003C Bytes, ..., Flags = 0x02000000)
T1EB0 000:737.530    -- CPU_ReadMem(64 bytes @ 0x00000A80)
T1EB0 000:738.848    -- Updating C cache (64 bytes @ 0x00000A80)
T1EB0 000:738.866    -- Read from C cache (60 bytes @ 0x00000A80)
T1EB0 000:738.880   Data:  06 4B 18 47 06 4A 10 60 01 68 81 F3 08 88 40 68 ...
T1EB0 000:738.893 - 1.388ms returns 0x3C
T1884 001:514.005   JLINK_ReadMemEx(0x00000A80, 0x0002 Bytes, ..., Flags = 0x02000000)
T1884 001:514.052    -- Read from C cache (2 bytes @ 0x00000A80)
T1884 001:514.065   Data:  06 4B
T1884 001:514.077 - 0.078ms returns 0x02
T1884 001:514.092   JLINK_SetBPEx(Addr = 0x000277B8, Type = 0xFFFFFFF2)
T1884 001:514.110 - 0.023ms returns 0x00000001
T1884 001:514.129 JLINK_Go()
T1884 001:515.696    -- CPU_WriteMem(4 bytes @ 0xE0002000)
T1884 001:516.629    -- CPU_ReadMem(4 bytes @ 0xE0001000)
T1884 001:518.806    -- CPU_WriteMem(4 bytes @ 0xE0002008)
T1884 001:518.842    -- CPU_WriteMem(4 bytes @ 0xE000200C)
T1884 001:518.855    -- CPU_WriteMem(4 bytes @ 0xE0002010)
T1884 001:518.868    -- CPU_WriteMem(4 bytes @ 0xE0002014)
T1884 001:518.881    -- CPU_WriteMem(4 bytes @ 0xE0002018)
T1884 001:518.893    -- CPU_WriteMem(4 bytes @ 0xE000201C)
T1884 001:520.890    -- CPU_WriteMem(4 bytes @ 0xE0001004)
T1884 001:522.876 - 8.765ms
T1884 001:622.558 JLINK_IsHalted()
T1884 001:626.006 - 3.468ms returns TRUE
T1884 001:626.049 JLINK_Halt()
T1884 001:626.060 - 0.024ms returns 0x00
T1884 001:626.080 JLINK_IsHalted()
T1884 001:626.097 - 0.022ms returns TRUE
T1884 001:626.117 JLINK_IsHalted()
T1884 001:626.134 - 0.022ms returns TRUE
T1884 001:626.153 JLINK_IsHalted()
T1884 001:626.170 - 0.021ms returns TRUE
T1884 001:626.192 JLINK_ReadReg(R15 (PC))
T1884 001:626.213 - 0.034ms returns 0x000277B8
T1884 001:626.232 JLINK_ReadReg(XPSR)
T1884 001:626.250 - 0.023ms returns 0x61000000
T1884 001:626.282 JLINK_ClrBPEx(BPHandle = 0x00000001)
T1884 001:626.292 - 0.023ms returns 0x00
T1884 001:626.323   JLINK_ReadMemU32(0xE000ED30, 0x0001 Items, ...)
T1884 001:626.351    -- CPU_ReadMem(4 bytes @ 0xE000ED30)
T1884 001:626.965   Data:  02 00 00 00
T1884 001:626.997 - 0.688ms returns 1
T1884 001:627.011   JLINK_ReadMemU32(0xE0001028, 0x0001 Items, ...)
T1884 001:627.029    -- CPU_ReadMem(4 bytes @ 0xE0001028)
T1884 001:627.984   Data:  00 00 00 00
T1884 001:628.020    - DWT_FUNC[0]
T1884 001:628.033 - 1.027ms returns 1
T1884 001:628.047   JLINK_ReadMemU32(0xE0001038, 0x0001 Items, ...)
T1884 001:628.065    -- CPU_ReadMem(4 bytes @ 0xE0001038)
T1884 001:628.954   Data:  00 02 00 00
T1884 001:628.971    - DWT_FUNC[1]
T1884 001:628.983 - 0.941ms returns 1
T1884 001:628.996   JLINK_ReadMemU32(0xE0001048, 0x0001 Items, ...)
T1884 001:629.012    -- CPU_ReadMem(4 bytes @ 0xE0001048)
T1884 001:629.967   Data:  00 00 00 00
T1884 001:630.073    - DWT_FUNC[2]
T1884 001:630.085 - 1.094ms returns 1
T1884 001:630.098   JLINK_ReadMemU32(0xE0001058, 0x0001 Items, ...)
T1884 001:630.114    -- CPU_ReadMem(4 bytes @ 0xE0001058)
T1884 001:630.968   Data:  00 00 00 00
T1884 001:631.004    - DWT_FUNC[3]
T1884 001:631.030 - 0.949ms returns 1
T1884 001:631.100 JLINK_ReadReg(R0)
T1884 001:631.114 - 0.018ms returns 0x000277B9
T1884 001:631.125 JLINK_ReadReg(R1)
T1884 001:631.135 - 0.014ms returns 0x20004D58
T1884 001:631.145 JLINK_ReadReg(R2)
T1884 001:631.154 - 0.013ms returns 0x00000000
T1884 001:631.164 JLINK_ReadReg(R3)
T1884 001:631.174 - 0.014ms returns 0x00026911
T1884 001:631.184 JLINK_ReadReg(R4)
T1884 001:631.194 - 0.013ms returns 0x00028898
T1884 001:631.204 JLINK_ReadReg(R5)
T1884 001:631.213 - 0.013ms returns 0x00028898
T1884 001:631.223 JLINK_ReadReg(R6)
T1884 001:631.232 - 0.013ms returns 0x10001000
T1884 001:631.243 JLINK_ReadReg(R7)
T1884 001:631.252 - 0.014ms returns 0x00000000
T1884 001:631.262 JLINK_ReadReg(R8)
T1884 001:631.271 - 0.013ms returns 0x00000000
T1884 001:631.281 JLINK_ReadReg(R9)
T1884 001:631.291 - 0.014ms returns 0x00000000
T1884 001:631.301 JLINK_ReadReg(R10)
T1884 001:631.310 - 0.013ms returns 0x00000000
T1884 001:631.320 JLINK_ReadReg(R11)
T1884 001:631.330 - 0.013ms returns 0x00000000
T1884 001:631.339 JLINK_ReadReg(R12)
T1884 001:631.349 - 0.013ms returns 0x00000006
T1884 001:631.359 JLINK_ReadReg(R13 (SP))
T1884 001:631.368 - 0.014ms returns 0x20004D58
T1884 001:631.379 JLINK_ReadReg(R14)
T1884 001:631.388 - 0.014ms returns 0x00026449
T1884 001:631.398 JLINK_ReadReg(R15 (PC))
T1884 001:631.407 - 0.014ms returns 0x000277B8
T1884 001:631.418 JLINK_ReadReg(XPSR)
T1884 001:631.427 - 0.014ms returns 0x61000000
T1884 001:631.437 JLINK_ReadReg(MSP)
T1884 001:631.447 - 0.013ms returns 0x20004D58
T1884 001:631.457 JLINK_ReadReg(PSP)
T1884 001:631.466 - 0.014ms returns 0x00000000
T1884 001:631.476 JLINK_ReadReg(CFBP)
T1884 001:631.485 - 0.013ms returns 0x00000000
T1884 001:631.496 JLINK_ReadReg(FPSCR)
T1884 001:635.302 - 3.893ms returns 0x00000000
T1884 001:635.403 JLINK_ReadReg(FPS0)
T1884 001:635.416 - 0.018ms returns 0x00000000
T1884 001:635.427 JLINK_ReadReg(FPS1)
T1884 001:635.436 - 0.014ms returns 0x00000000
T1884 001:635.447 JLINK_ReadReg(FPS2)
T1884 001:635.456 - 0.014ms returns 0x00000000
T1884 001:635.467 JLINK_ReadReg(FPS3)
T1884 001:635.477 - 0.014ms returns 0x00000000
T1884 001:635.487 JLINK_ReadReg(FPS4)
T1884 001:635.497 - 0.041ms returns 0x00000000
T1884 001:635.535 JLINK_ReadReg(FPS5)
T1884 001:635.545 - 0.015ms returns 0x00000000
T1884 001:635.556 JLINK_ReadReg(FPS6)
T1884 001:635.569 - 0.017ms returns 0x00000000
T1884 001:635.579 JLINK_ReadReg(FPS7)
T1884 001:635.590 - 0.016ms returns 0x00000000
T1884 001:635.601 JLINK_ReadReg(FPS8)
T1884 001:635.624 - 0.027ms returns 0x00000000
T1884 001:635.635 JLINK_ReadReg(FPS9)
T1884 001:635.646 - 0.015ms returns 0x00000000
T1884 001:635.657 JLINK_ReadReg(FPS10)
T1884 001:635.667 - 0.015ms returns 0x00000000
T1884 001:635.678 JLINK_ReadReg(FPS11)
T1884 001:635.688 - 0.015ms returns 0x00000000
T1884 001:635.700 JLINK_ReadReg(FPS12)
T1884 001:635.711 - 0.015ms returns 0x00000000
T1884 001:635.721 JLINK_ReadReg(FPS13)
T1884 001:635.731 - 0.014ms returns 0x00000000
T1884 001:635.741 JLINK_ReadReg(FPS14)
T1884 001:635.752 - 0.015ms returns 0x00000000
T1884 001:635.764 JLINK_ReadReg(FPS15)
T1884 001:635.773 - 0.014ms returns 0x00000000
T1884 001:635.784 JLINK_ReadReg(FPS16)
T1884 001:635.795 - 0.016ms returns 0x00000000
T1884 001:635.806 JLINK_ReadReg(FPS17)
T1884 001:635.817 - 0.016ms returns 0x00000000
T1884 001:635.829 JLINK_ReadReg(FPS18)
T1884 001:635.840 - 0.015ms returns 0x00000000
T1884 001:635.850 JLINK_ReadReg(FPS19)
T1884 001:635.860 - 0.016ms returns 0x00000000
T1884 001:635.872 JLINK_ReadReg(FPS20)
T1884 001:635.881 - 0.014ms returns 0x00000000
T1884 001:635.891 JLINK_ReadReg(FPS21)
T1884 001:635.902 - 0.017ms returns 0x00000000
T1884 001:635.915 JLINK_ReadReg(FPS22)
T1884 001:635.986 - 0.077ms returns 0x00000000
T1884 001:635.998 JLINK_ReadReg(FPS23)
T1884 001:636.020 - 0.027ms returns 0x00000000
T1884 001:636.031 JLINK_ReadReg(FPS24)
T1884 001:636.040 - 0.013ms returns 0x00000000
T1884 001:636.049 JLINK_ReadReg(FPS25)
T1884 001:636.058 - 0.013ms returns 0x00000000
T1884 001:636.068 JLINK_ReadReg(FPS26)
T1884 001:636.077 - 0.013ms returns 0x00000000
T1884 001:636.087 JLINK_ReadReg(FPS27)
T1884 001:636.096 - 0.013ms returns 0x00000000
T1884 001:636.105 JLINK_ReadReg(FPS28)
T1884 001:636.114 - 0.013ms returns 0x00000000
T1884 001:636.124 JLINK_ReadReg(FPS29)
T1884 001:636.133 - 0.013ms returns 0x00000000
T1884 001:636.143 JLINK_ReadReg(FPS30)
T1884 001:636.152 - 0.013ms returns 0x00000000
T1884 001:636.161 JLINK_ReadReg(FPS31)
T1884 001:636.170 - 0.013ms returns 0x00000000
T1EB0 001:638.861   JLINK_ReadMemU32(0xE0001004, 0x0001 Items, ...)
T1EB0 001:638.906    -- CPU_ReadMem(4 bytes @ 0xE0001004)
T1EB0 001:641.257   Data:  E9 52 00 00
T1EB0 001:641.281    - DWT_CYCCNT
T1EB0 001:641.293 - 2.437ms returns 1
T1EB0 001:641.956   JLINK_ReadMemEx(0x000276B8, 0x003C Bytes, ..., Flags = 0x02000000)
T1EB0 001:641.983    -- CPU_ReadMem(128 bytes @ 0x00027680)
T1EB0 001:643.302    -- Updating C cache (128 bytes @ 0x00027680)
T1EB0 001:643.321    -- Read from C cache (60 bytes @ 0x000276B8)
T1EB0 001:643.335   Data:  0A D1 0C E0 00 EB 84 00 6D 1C C0 F8 40 55 38 68 ...
T1EB0 001:643.348 - 1.396ms returns 0x3C
T1EB0 001:643.367   JLINK_ReadMemEx(0x000276F4, 0x003C Bytes, ..., Flags = 0x02000000)
T1EB0 001:643.382    -- CPU_ReadMem(64 bytes @ 0x00027700)
T1EB0 001:644.327    -- Updating C cache (64 bytes @ 0x00027700)
T1EB0 001:644.346    -- Read from C cache (60 bytes @ 0x000276F4)
T1EB0 001:644.360   Data:  70 47 10 B5 00 68 42 58 1A B1 00 F0 7D FB 01 20 ...
T1EB0 001:644.371 - 1.009ms returns 0x3C
T1EB0 001:644.389   JLINK_ReadMemEx(0x00027730, 0x003C Bytes, ..., Flags = 0x02000000)
T1EB0 001:644.404    -- CPU_ReadMem(64 bytes @ 0x00027740)
T1EB0 001:645.306    -- Updating C cache (64 bytes @ 0x00027740)
T1EB0 001:645.340    -- Read from C cache (60 bytes @ 0x00027730)
T1EB0 001:645.354   Data:  71 EB 02 02 04 D2 4F F0 80 72 80 18 41 F1 00 01 ...
T1EB0 001:645.366 - 0.981ms returns 0x3C
T1EB0 001:645.384   JLINK_ReadMemEx(0x0002776C, 0x003C Bytes, ..., Flags = 0x02000000)
T1EB0 001:645.400    -- CPU_ReadMem(64 bytes @ 0x00027780)
T1EB0 001:646.314    -- Updating C cache (64 bytes @ 0x00027780)
T1EB0 001:646.355    -- Read from C cache (60 bytes @ 0x0002776C)
T1EB0 001:646.385   Data:  D6 18 9A 42 00 D8 13 46 D2 1A 4B 88 07 88 BB 42 ...
T1EB0 001:646.408 - 1.029ms returns 0x3C
T1EB0 001:646.427   JLINK_ReadMemEx(0x000277A8, 0x003C Bytes, ..., Flags = 0x02000000)
T1EB0 001:646.443    -- CPU_ReadMem(64 bytes @ 0x000277C0)
T1EB0 001:647.315    -- Updating C cache (64 bytes @ 0x000277C0)
T1EB0 001:647.351    -- Read from C cache (60 bytes @ 0x000277A8)
T1EB0 001:647.380   Data:  00 21 01 71 41 71 1B 21 81 71 C1 71 70 47 00 00 ...
T1EB0 001:647.403 - 0.981ms returns 0x3C
T1884 010:469.547   JLINK_ReadMemEx(0x000277B8, 0x0002 Bytes, ..., Flags = 0x02000000)
T1884 010:469.594    -- Read from C cache (2 bytes @ 0x000277B8)
T1884 010:469.608   Data:  88 B0
T1884 010:469.621 - 0.080ms returns 0x02
T1884 010:469.636 JLINK_Step()
T1884 010:470.997    -- CPU_WriteMem(4 bytes @ 0xE0002008)
T1884 010:475.986 - 6.362ms returns 0x00
T1884 010:476.009 JLINK_ReadReg(R15 (PC))
T1884 010:476.021 - 0.016ms returns 0x000277BA
T1884 010:476.032 JLINK_ReadReg(XPSR)
T1884 010:476.043 - 0.015ms returns 0x61000000
T1884 010:476.061   JLINK_SetBPEx(Addr = 0x000277C4, Type = 0xFFFFFFF2)
T1884 010:476.076 - 0.020ms returns 0x00000002
T1884 010:476.089 JLINK_Go()
T1884 010:476.102    -- CPU_WriteMem(4 bytes @ 0xE0002000)
T1884 010:476.988    -- CPU_ReadMem(4 bytes @ 0xE0001000)
T1884 010:477.983    -- CPU_WriteMem(4 bytes @ 0xE0002008)
T1884 010:479.979 - 3.902ms
T1884 010:579.917 JLINK_IsHalted()
T1884 010:583.419 - 3.529ms returns TRUE
T1884 010:583.467 JLINK_Halt()
T1884 010:583.481 - 0.017ms returns 0x00
T1884 010:583.491 JLINK_IsHalted()
T1884 010:583.500 - 0.015ms returns TRUE
T1884 010:583.514 JLINK_IsHalted()
T1884 010:583.525 - 0.015ms returns TRUE
T1884 010:583.535 JLINK_IsHalted()
T1884 010:583.544 - 0.013ms returns TRUE
T1884 010:583.557 JLINK_ReadReg(R15 (PC))
T1884 010:583.569 - 0.017ms returns 0x000277C4
T1884 010:583.580 JLINK_ReadReg(XPSR)
T1884 010:583.590 - 0.014ms returns 0x21000000
T1884 010:583.605 JLINK_ClrBPEx(BPHandle = 0x00000002)
T1884 010:583.618 - 0.017ms returns 0x00
T1884 010:583.632   JLINK_ReadMemU32(0xE000ED30, 0x0001 Items, ...)
T1884 010:583.652    -- CPU_ReadMem(4 bytes @ 0xE000ED30)
T1884 010:584.404   Data:  02 00 00 00
T1884 010:584.435 - 0.808ms returns 1
T1884 010:584.449   JLINK_ReadMemU32(0xE0001028, 0x0001 Items, ...)
T1884 010:584.470    -- CPU_ReadMem(4 bytes @ 0xE0001028)
T1884 010:585.398   Data:  00 00 00 00
T1884 010:585.427    - DWT_FUNC[0]
T1884 010:585.440 - 0.995ms returns 1
T1884 010:585.454   JLINK_ReadMemU32(0xE0001038, 0x0001 Items, ...)
T1884 010:585.475    -- CPU_ReadMem(4 bytes @ 0xE0001038)
T1884 010:586.401   Data:  00 02 00 00
T1884 010:586.435    - DWT_FUNC[1]
T1884 010:586.451 - 1.002ms returns 1
T1884 010:586.465   JLINK_ReadMemU32(0xE0001048, 0x0001 Items, ...)
T1884 010:586.484    -- CPU_ReadMem(4 bytes @ 0xE0001048)
T1884 010:587.403   Data:  00 00 00 00
T1884 010:587.436    - DWT_FUNC[2]
T1884 010:587.451 - 0.991ms returns 1
T1884 010:587.466   JLINK_ReadMemU32(0xE0001058, 0x0001 Items, ...)
T1884 010:587.488    -- CPU_ReadMem(4 bytes @ 0xE0001058)
T1884 010:588.510   Data:  00 00 00 00
T1884 010:588.531    - DWT_FUNC[3]
T1884 010:588.544 - 1.082ms returns 1
T1884 010:588.604 JLINK_ReadReg(R0)
T1884 010:588.620 - 0.020ms returns 0x00000000
T1884 010:588.631 JLINK_ReadReg(R1)
T1884 010:588.641 - 0.014ms returns 0x20002AC0
T1884 010:588.651 JLINK_ReadReg(R2)
T1884 010:588.660 - 0.014ms returns 0x00000000
T1884 010:588.671 JLINK_ReadReg(R3)
T1884 010:588.680 - 0.014ms returns 0x00060001
T1884 010:588.690 JLINK_ReadReg(R4)
T1884 010:588.700 - 0.014ms returns 0x00028898
T1884 010:588.710 JLINK_ReadReg(R5)
T1884 010:588.720 - 0.014ms returns 0x00028898
T1884 010:588.730 JLINK_ReadReg(R6)
T1884 010:588.739 - 0.014ms returns 0x10001000
T1884 010:588.749 JLINK_ReadReg(R7)
T1884 010:588.758 - 0.013ms returns 0x00000000
T1884 010:588.769 JLINK_ReadReg(R8)
T1884 010:588.778 - 0.014ms returns 0x00000000
T1884 010:588.788 JLINK_ReadReg(R9)
T1884 010:588.797 - 0.013ms returns 0x00000000
T1884 010:588.808 JLINK_ReadReg(R10)
T1884 010:588.817 - 0.013ms returns 0x00000000
T1884 010:588.827 JLINK_ReadReg(R11)
T1884 010:588.836 - 0.014ms returns 0x00000000
T1884 010:588.847 JLINK_ReadReg(R12)
T1884 010:588.855 - 0.013ms returns 0x00000006
T1884 010:588.874 JLINK_ReadReg(R13 (SP))
T1884 010:588.884 - 0.015ms returns 0x20004D38
T1884 010:588.895 JLINK_ReadReg(R14)
T1884 010:588.904 - 0.014ms returns 0x00027525
T1884 010:588.914 JLINK_ReadReg(R15 (PC))
T1884 010:588.923 - 0.013ms returns 0x000277C4
T1884 010:588.934 JLINK_ReadReg(XPSR)
T1884 010:588.943 - 0.013ms returns 0x21000000
T1884 010:588.953 JLINK_ReadReg(MSP)
T1884 010:588.962 - 0.013ms returns 0x20004D38
T1884 010:588.973 JLINK_ReadReg(PSP)
T1884 010:588.982 - 0.013ms returns 0x00000000
T1884 010:588.992 JLINK_ReadReg(CFBP)
T1884 010:589.001 - 0.013ms returns 0x00000000
T1884 010:589.011 JLINK_ReadReg(FPSCR)
T1884 010:593.029 - 4.029ms returns 0x00000000
T1884 010:593.051 JLINK_ReadReg(FPS0)
T1884 010:593.066 - 0.022ms returns 0x00000000
T1884 010:593.081 JLINK_ReadReg(FPS1)
T1884 010:593.091 - 0.014ms returns 0x00000000
T1884 010:593.102 JLINK_ReadReg(FPS2)
T1884 010:593.111 - 0.013ms returns 0x00000000
T1884 010:593.122 JLINK_ReadReg(FPS3)
T1884 010:593.131 - 0.013ms returns 0x00000000
T1884 010:593.142 JLINK_ReadReg(FPS4)
T1884 010:593.151 - 0.013ms returns 0x00000000
T1884 010:593.161 JLINK_ReadReg(FPS5)
T1884 010:593.170 - 0.013ms returns 0x00000000
T1884 010:593.213 JLINK_ReadReg(FPS6)
T1884 010:593.227 - 0.018ms returns 0x00000000
T1884 010:593.238 JLINK_ReadReg(FPS7)
T1884 010:593.247 - 0.013ms returns 0x00000000
T1884 010:593.257 JLINK_ReadReg(FPS8)
T1884 010:593.267 - 0.013ms returns 0x00000000
T1884 010:593.277 JLINK_ReadReg(FPS9)
T1884 010:593.286 - 0.013ms returns 0x00000000
T1884 010:593.297 JLINK_ReadReg(FPS10)
T1884 010:593.306 - 0.013ms returns 0x00000000
T1884 010:593.317 JLINK_ReadReg(FPS11)
T1884 010:593.326 - 0.013ms returns 0x00000000
T1884 010:593.336 JLINK_ReadReg(FPS12)
T1884 010:593.345 - 0.013ms returns 0x00000000
T1884 010:593.356 JLINK_ReadReg(FPS13)
T1884 010:593.365 - 0.013ms returns 0x00000000
T1884 010:593.376 JLINK_ReadReg(FPS14)
T1884 010:593.385 - 0.013ms returns 0x00000000
T1884 010:593.396 JLINK_ReadReg(FPS15)
T1884 010:593.405 - 0.013ms returns 0x00000000
T1884 010:593.416 JLINK_ReadReg(FPS16)
T1884 010:593.424 - 0.013ms returns 0x00000000
T1884 010:593.435 JLINK_ReadReg(FPS17)
T1884 010:593.444 - 0.013ms returns 0x00000000
T1884 010:593.455 JLINK_ReadReg(FPS18)
T1884 010:593.472 - 0.021ms returns 0x00000000
T1884 010:593.483 JLINK_ReadReg(FPS19)
T1884 010:593.492 - 0.013ms returns 0x00000000
T1884 010:593.502 JLINK_ReadReg(FPS20)
T1884 010:593.511 - 0.013ms returns 0x00000000
T1884 010:593.522 JLINK_ReadReg(FPS21)
T1884 010:593.539 - 0.022ms returns 0x00000000
T1884 010:593.551 JLINK_ReadReg(FPS22)
T1884 010:593.578 - 0.032ms returns 0x00000000
T1884 010:593.589 JLINK_ReadReg(FPS23)
T1884 010:593.598 - 0.014ms returns 0x00000000
T1884 010:593.609 JLINK_ReadReg(FPS24)
T1884 010:593.618 - 0.014ms returns 0x00000000
T1884 010:593.628 JLINK_ReadReg(FPS25)
T1884 010:593.638 - 0.013ms returns 0x00000000
T1884 010:593.649 JLINK_ReadReg(FPS26)
T1884 010:593.658 - 0.013ms returns 0x00000000
T1884 010:593.669 JLINK_ReadReg(FPS27)
T1884 010:593.678 - 0.013ms returns 0x00000000
T1884 010:593.688 JLINK_ReadReg(FPS28)
T1884 010:593.698 - 0.013ms returns 0x00000000
T1884 010:593.708 JLINK_ReadReg(FPS29)
T1884 010:593.718 - 0.021ms returns 0x00000000
T1884 010:593.736 JLINK_ReadReg(FPS30)
T1884 010:593.746 - 0.014ms returns 0x00000000
T1884 010:593.756 JLINK_ReadReg(FPS31)
T1884 010:593.766 - 0.013ms returns 0x00000000
T1EB0 010:596.091   JLINK_ReadMemEx(0x00000000, 0x0004 Bytes, ..., Flags = 0x02000000)
T1EB0 010:596.144    -- CPU_ReadMem(64 bytes @ 0x00000000)
T1EB0 010:597.567    -- Updating C cache (64 bytes @ 0x00000000)
T1EB0 010:597.608    -- Read from C cache (4 bytes @ 0x00000000)
T1EB0 010:597.624   Data:  00 04 00 20
T1EB0 010:597.637 - 1.553ms returns 0x04
T1EB0 010:600.324   JLINK_ReadMemU32(0xE0001004, 0x0001 Items, ...)
T1EB0 010:600.376    -- CPU_ReadMem(4 bytes @ 0xE0001004)
T1EB0 010:601.816   Data:  68 54 00 00
T1EB0 010:601.860    - DWT_CYCCNT
T1EB0 010:601.879 - 1.561ms returns 1
T1EB0 010:602.662   JLINK_ReadMemEx(0x000277BE, 0x0002 Bytes, ..., Flags = 0x02000000)
T1EB0 010:602.702    -- CPU_ReadMem(64 bytes @ 0x00027780)
T1EB0 010:604.075    -- Updating C cache (64 bytes @ 0x00027780)
T1EB0 010:604.109    -- Read from C cache (2 bytes @ 0x000277BE)
T1EB0 010:604.123   Data:  08 B1
T1EB0 010:604.136 - 1.479ms returns 0x02
T1EB0 010:604.151   JLINK_ReadMemEx(0x000277C0, 0x003C Bytes, ..., Flags = 0x02000000)
T1EB0 010:604.168    -- CPU_ReadMem(64 bytes @ 0x000277C0)
T1EB0 010:605.133    -- Updating C cache (64 bytes @ 0x000277C0)
T1EB0 010:605.171    -- Read from C cache (60 bytes @ 0x000277C0)
T1EB0 010:605.186   Data:  FF F7 6A F9 00 F0 04 FB 08 B1 FF F7 65 F9 00 F0 ...
T1EB0 010:605.199 - 1.052ms returns 0x3C
T1884 013:646.846   JLINK_ReadMemEx(0x000277C4, 0x0002 Bytes, ..., Flags = 0x02000000)
T1884 013:646.898    -- Read from C cache (2 bytes @ 0x000277C4)
T1884 013:646.912   Data:  00 F0
T1884 013:646.926 - 0.085ms returns 0x02
T1884 013:646.941   JLINK_SetBPEx(Addr = 0x000277CE, Type = 0xFFFFFFF2)
T1884 013:646.961 - 0.025ms returns 0x00000003
T1884 013:646.976 JLINK_Go()
T1884 013:648.575    -- CPU_WriteMem(4 bytes @ 0xE0002000)
T1884 013:649.490    -- CPU_ReadMem(4 bytes @ 0xE0001000)
T1884 013:650.481    -- CPU_WriteMem(4 bytes @ 0xE0002008)
T1884 013:652.479 - 5.515ms
T1884 013:752.080 JLINK_IsHalted()
T1884 013:755.597 - 3.543ms returns TRUE
T1884 013:755.637 JLINK_Halt()
T1884 013:755.648 - 0.014ms returns 0x00
T1884 013:755.658 JLINK_IsHalted()
T1884 013:755.667 - 0.013ms returns TRUE
T1884 013:755.677 JLINK_IsHalted()
T1884 013:755.685 - 0.012ms returns TRUE
T1884 013:755.695 JLINK_IsHalted()
T1884 013:755.703 - 0.012ms returns TRUE
T1884 013:755.715 JLINK_ReadReg(R15 (PC))
T1884 013:755.727 - 0.016ms returns 0x000277CE
T1884 013:755.737 JLINK_ReadReg(XPSR)
T1884 013:755.747 - 0.013ms returns 0x61000000
T1884 013:755.761 JLINK_ClrBPEx(BPHandle = 0x00000003)
T1884 013:755.771 - 0.014ms returns 0x00
T1884 013:755.784   JLINK_ReadMemU32(0xE000ED30, 0x0001 Items, ...)
T1884 013:755.803    -- CPU_ReadMem(4 bytes @ 0xE000ED30)
T1884 013:756.587   Data:  02 00 00 00
T1884 013:756.618 - 0.841ms returns 1
T1884 013:756.636   JLINK_ReadMemU32(0xE0001028, 0x0001 Items, ...)
T1884 013:756.660    -- CPU_ReadMem(4 bytes @ 0xE0001028)
T1884 013:757.608   Data:  00 00 00 00
T1884 013:757.649    - DWT_FUNC[0]
T1884 013:757.676 - 1.044ms returns 1
T1884 013:757.688   JLINK_ReadMemU32(0xE0001038, 0x0001 Items, ...)
T1884 013:757.710    -- CPU_ReadMem(4 bytes @ 0xE0001038)
T1884 013:758.599   Data:  00 02 00 00
T1884 013:758.638    - DWT_FUNC[1]
T1884 013:758.659 - 0.975ms returns 1
T1884 013:758.671   JLINK_ReadMemU32(0xE0001048, 0x0001 Items, ...)
T1884 013:758.688    -- CPU_ReadMem(4 bytes @ 0xE0001048)
T1884 013:759.594   Data:  00 00 00 00
T1884 013:759.641    - DWT_FUNC[2]
T1884 013:759.674 - 1.007ms returns 1
T1884 013:759.685   JLINK_ReadMemU32(0xE0001058, 0x0001 Items, ...)
T1884 013:759.700    -- CPU_ReadMem(4 bytes @ 0xE0001058)
T1884 013:760.595   Data:  00 00 00 00
T1884 013:760.642    - DWT_FUNC[3]
T1884 013:760.675 - 0.994ms returns 1
T1884 013:760.734 JLINK_ReadReg(R0)
T1884 013:760.747 - 0.018ms returns 0x00000000
T1884 013:760.758 JLINK_ReadReg(R1)
T1884 013:760.767 - 0.013ms returns 0x00000000
T1884 013:760.777 JLINK_ReadReg(R2)
T1884 013:760.786 - 0.013ms returns 0x00028810
T1884 013:760.796 JLINK_ReadReg(R3)
T1884 013:760.805 - 0.013ms returns 0x00028810
T1884 013:760.815 JLINK_ReadReg(R4)
T1884 013:760.823 - 0.013ms returns 0x00028898
T1884 013:760.833 JLINK_ReadReg(R5)
T1884 013:760.842 - 0.013ms returns 0x00028898
T1884 013:760.852 JLINK_ReadReg(R6)
T1884 013:760.861 - 0.013ms returns 0x10001000
T1884 013:760.871 JLINK_ReadReg(R7)
T1884 013:760.880 - 0.013ms returns 0x00000000
T1884 013:760.890 JLINK_ReadReg(R8)
T1884 013:760.899 - 0.013ms returns 0x00000000
T1884 013:760.908 JLINK_ReadReg(R9)
T1884 013:760.917 - 0.013ms returns 0x00000000
T1884 013:760.927 JLINK_ReadReg(R10)
T1884 013:760.936 - 0.013ms returns 0x00000000
T1884 013:760.946 JLINK_ReadReg(R11)
T1884 013:760.955 - 0.013ms returns 0x00000000
T1884 013:760.965 JLINK_ReadReg(R12)
T1884 013:760.974 - 0.013ms returns 0x00000006
T1884 013:760.984 JLINK_ReadReg(R13 (SP))
T1884 013:760.993 - 0.016ms returns 0x20004D38
T1884 013:761.006 JLINK_ReadReg(R14)
T1884 013:761.023 - 0.022ms returns 0x00027DE9
T1884 013:761.034 JLINK_ReadReg(R15 (PC))
T1884 013:761.043 - 0.022ms returns 0x000277CE
T1884 013:761.061 JLINK_ReadReg(XPSR)
T1884 013:761.070 - 0.013ms returns 0x61000000
T1884 013:761.080 JLINK_ReadReg(MSP)
T1884 013:761.089 - 0.013ms returns 0x20004D38
T1884 013:761.099 JLINK_ReadReg(PSP)
T1884 013:761.108 - 0.013ms returns 0x00000000
T1884 013:761.118 JLINK_ReadReg(CFBP)
T1884 013:761.127 - 0.013ms returns 0x00000000
T1884 013:761.136 JLINK_ReadReg(FPSCR)
T1884 013:765.042 - 3.923ms returns 0x00000000
T1884 013:765.070 JLINK_ReadReg(FPS0)
T1884 013:765.085 - 0.019ms returns 0x00000000
T1884 013:765.096 JLINK_ReadReg(FPS1)
T1884 013:765.105 - 0.014ms returns 0x00000000
T1884 013:765.115 JLINK_ReadReg(FPS2)
T1884 013:765.125 - 0.014ms returns 0x00000000
T1884 013:765.135 JLINK_ReadReg(FPS3)
T1884 013:765.176 - 0.049ms returns 0x00000000
T1884 013:765.191 JLINK_ReadReg(FPS4)
T1884 013:765.200 - 0.014ms returns 0x00000000
T1884 013:765.210 JLINK_ReadReg(FPS5)
T1884 013:765.220 - 0.013ms returns 0x00000000
T1884 013:765.230 JLINK_ReadReg(FPS6)
T1884 013:765.239 - 0.026ms returns 0x00000000
T1884 013:765.263 JLINK_ReadReg(FPS7)
T1884 013:765.273 - 0.014ms returns 0x00000000
T1884 013:765.283 JLINK_ReadReg(FPS8)
T1884 013:765.292 - 0.014ms returns 0x00000000
T1884 013:765.303 JLINK_ReadReg(FPS9)
T1884 013:765.312 - 0.013ms returns 0x00000000
T1884 013:765.322 JLINK_ReadReg(FPS10)
T1884 013:765.331 - 0.013ms returns 0x00000000
T1884 013:765.342 JLINK_ReadReg(FPS11)
T1884 013:765.351 - 0.014ms returns 0x00000000
T1884 013:765.361 JLINK_ReadReg(FPS12)
T1884 013:765.370 - 0.013ms returns 0x00000000
T1884 013:765.380 JLINK_ReadReg(FPS13)
T1884 013:765.389 - 0.013ms returns 0x00000000
T1884 013:765.400 JLINK_ReadReg(FPS14)
T1884 013:765.409 - 0.013ms returns 0x00000000
T1884 013:765.419 JLINK_ReadReg(FPS15)
T1884 013:765.428 - 0.013ms returns 0x00000000
T1884 013:765.438 JLINK_ReadReg(FPS16)
T1884 013:765.447 - 0.013ms returns 0x00000000
T1884 013:765.458 JLINK_ReadReg(FPS17)
T1884 013:765.467 - 0.013ms returns 0x00000000
T1884 013:765.477 JLINK_ReadReg(FPS18)
T1884 013:765.486 - 0.013ms returns 0x00000000
T1884 013:765.496 JLINK_ReadReg(FPS19)
T1884 013:765.505 - 0.013ms returns 0x00000000
T1884 013:765.515 JLINK_ReadReg(FPS20)
T1884 013:765.525 - 0.014ms returns 0x00000000
T1884 013:765.535 JLINK_ReadReg(FPS21)
T1884 013:765.544 - 0.013ms returns 0x00000000
T1884 013:765.554 JLINK_ReadReg(FPS22)
T1884 013:765.563 - 0.014ms returns 0x00000000
T1884 013:765.574 JLINK_ReadReg(FPS23)
T1884 013:765.583 - 0.013ms returns 0x00000000
T1884 013:765.593 JLINK_ReadReg(FPS24)
T1884 013:765.602 - 0.013ms returns 0x00000000
T1884 013:765.612 JLINK_ReadReg(FPS25)
T1884 013:765.621 - 0.013ms returns 0x00000000
T1884 013:765.631 JLINK_ReadReg(FPS26)
T1884 013:765.640 - 0.013ms returns 0x00000000
T1884 013:765.650 JLINK_ReadReg(FPS27)
T1884 013:765.660 - 0.013ms returns 0x00000000
T1884 013:765.670 JLINK_ReadReg(FPS28)
T1884 013:765.679 - 0.013ms returns 0x00000000
T1884 013:765.689 JLINK_ReadReg(FPS29)
T1884 013:765.698 - 0.013ms returns 0x00000000
T1884 013:765.708 JLINK_ReadReg(FPS30)
T1884 013:765.717 - 0.013ms returns 0x00000000
T1884 013:765.727 JLINK_ReadReg(FPS31)
T1884 013:765.736 - 0.013ms returns 0x00000000
T1EB0 013:768.080   JLINK_ReadMemEx(0x00000000, 0x0004 Bytes, ..., Flags = 0x02000000)
T1EB0 013:768.131    -- CPU_ReadMem(64 bytes @ 0x00000000)
T1EB0 013:769.520    -- Updating C cache (64 bytes @ 0x00000000)
T1EB0 013:769.551    -- Read from C cache (4 bytes @ 0x00000000)
T1EB0 013:769.570   Data:  00 04 00 20
T1EB0 013:769.586 - 1.512ms returns 0x04
T1EB0 013:772.440   JLINK_ReadMemU32(0xE0001004, 0x0001 Items, ...)
T1EB0 013:772.491    -- CPU_ReadMem(4 bytes @ 0xE0001004)
T1EB0 013:773.955   Data:  F3 54 00 00
T1EB0 013:773.992    - DWT_CYCCNT
T1EB0 013:774.011 - 1.578ms returns 1
T1EB0 013:775.295   JLINK_ReadMemEx(0x000277C8, 0x0038 Bytes, ..., Flags = 0x02000000)
T1EB0 013:775.363    -- CPU_ReadMem(64 bytes @ 0x000277C0)
T1EB0 013:776.986    -- Updating C cache (64 bytes @ 0x000277C0)
T1EB0 013:777.014    -- Read from C cache (56 bytes @ 0x000277C8)
T1EB0 013:777.034   Data:  08 B1 FF F7 65 F9 00 F0 A1 FB 08 B1 FF F7 60 F9 ...
T1EB0 013:777.051 - 1.763ms returns 0x38
T1EB0 013:777.065   JLINK_ReadMemEx(0x00027800, 0x0004 Bytes, ..., Flags = 0x02000000)
T1EB0 013:777.081    -- CPU_ReadMem(64 bytes @ 0x00027800)
T1EB0 013:777.995    -- Updating C cache (64 bytes @ 0x00027800)
T1EB0 013:778.038    -- Read from C cache (4 bytes @ 0x00027800)
T1EB0 013:778.057   Data:  40 1C 20 F0
T1EB0 013:778.078 - 1.017ms returns 0x04
T1884 015:725.307   JLINK_ReadMemEx(0x000277CE, 0x0002 Bytes, ..., Flags = 0x02000000)
T1884 015:725.359    -- Read from C cache (2 bytes @ 0x000277CE)
T1884 015:725.373   Data:  00 F0
T1884 015:725.388 - 0.087ms returns 0x02
T1884 015:725.413   JLINK_SetBPEx(Addr = 0x000277F6, Type = 0xFFFFFFF2)
T1884 015:725.436 - 0.030ms returns 0x00000004
T1884 015:725.518 JLINK_Go()
T1884 015:727.034    -- CPU_WriteMem(4 bytes @ 0xE0002000)
T1884 015:728.054    -- CPU_ReadMem(4 bytes @ 0xE0001000)
T1884 015:729.032    -- CPU_WriteMem(4 bytes @ 0xE0002008)
T1884 015:731.020 - 5.526ms
T1884 015:830.149 JLINK_IsHalted()
T1884 015:831.732 - 1.600ms returns FALSE
T1884 015:931.188 JLINK_IsHalted()
T1884 015:932.756 - 1.585ms returns FALSE
T1884 016:032.213 JLINK_IsHalted()
T1884 016:033.695 - 1.498ms returns FALSE
T1884 016:133.161 JLINK_IsHalted()
T1884 016:134.640 - 1.495ms returns FALSE
T1884 016:234.159 JLINK_IsHalted()
T1884 016:235.645 - 1.504ms returns FALSE
T1884 016:335.156   JLINK_ReadMemU32(0xE0001004, 0x0001 Items, ...)
T1884 016:335.222    -- CPU_ReadMem(4 bytes @ 0xE0001004)
T1884 016:336.689   Data:  CB 1F 55 02
T1884 016:336.715    - DWT_CYCCNT
T1884 016:336.728 - 1.576ms returns 1
T1884 016:337.643 JLINK_IsHalted()
T1884 016:339.115 - 1.491ms returns FALSE
T1884 016:439.202 JLINK_IsHalted()
T1884 016:440.715 - 1.553ms returns FALSE
T1884 016:540.184 JLINK_IsHalted()
T1884 016:541.669 - 1.517ms returns FALSE
T1884 016:641.183 JLINK_IsHalted()
T1884 016:642.772 - 1.614ms returns FALSE
T1884 016:742.164 JLINK_IsHalted()
T1884 016:743.658 - 1.519ms returns FALSE
T1884 016:843.166   JLINK_ReadMemU32(0xE0001004, 0x0001 Items, ...)
T1884 016:843.237   Data:  CB 1F 55 02
T1884 016:843.251    - DWT_CYCCNT
T1884 016:843.264 - 0.102ms returns 1
T1884 016:843.362 JLINK_IsHalted()
T1884 016:844.437 - 1.095ms returns FALSE
T1884 016:944.192 JLINK_IsHalted()
T1884 016:945.804 - 1.652ms returns FALSE
T1884 017:045.206 JLINK_IsHalted()
T1884 017:046.900 - 1.734ms returns FALSE
T1884 017:146.190 JLINK_IsHalted()
T1884 017:147.748 - 1.588ms returns FALSE
T1884 017:247.205 JLINK_IsHalted()
T1884 017:248.809 - 1.635ms returns FALSE
T1884 017:348.201 JLINK_IsHalted()
T1884 017:349.668 - 1.491ms returns FALSE
T1884 017:449.216   JLINK_ReadMemU32(0xE0001004, 0x0001 Items, ...)
T1884 017:449.300   Data:  CB 1F 55 02
T1884 017:449.313    - DWT_CYCCNT
T1884 017:449.325 - 0.116ms returns 1
T1884 017:449.403 JLINK_IsHalted()
T1884 017:450.921 - 1.528ms returns FALSE
T1884 017:550.209 JLINK_IsHalted()
T1884 017:552.016 - 1.827ms returns FALSE
T1884 017:651.217 JLINK_IsHalted()
T1884 017:652.416 - 1.214ms returns FALSE
T1884 017:752.206 JLINK_IsHalted()
T1884 017:753.657 - 1.462ms returns FALSE
T1884 017:853.205 JLINK_IsHalted()
T1884 017:854.656 - 1.468ms returns FALSE
T1884 017:954.263 JLINK_IsHalted()
T1884 017:955.724 - 1.474ms returns FALSE
T1884 018:055.238   JLINK_ReadMemU32(0xE0001004, 0x0001 Items, ...)
T1884 018:055.308   Data:  CB 1F 55 02
T1884 018:055.323    - DWT_CYCCNT
T1884 018:055.334 - 0.101ms returns 1
T1884 018:055.439 JLINK_IsHalted()
T1884 018:056.880 - 1.453ms returns FALSE
T1884 018:156.240 JLINK_IsHalted()
T1884 018:157.707 - 1.483ms returns FALSE
T1884 018:257.234 JLINK_IsHalted()
T1884 018:258.689 - 1.474ms returns FALSE
T1884 018:358.233 JLINK_IsHalted()
T1884 018:359.910 - 1.712ms returns FALSE
T1884 018:459.256 JLINK_IsHalted()
T1884 018:460.868 - 1.644ms returns FALSE
T1884 018:560.347 JLINK_IsHalted()
T1884 018:561.898 - 1.574ms returns FALSE
T1884 018:661.940   JLINK_ReadMemU32(0xE0001004, 0x0001 Items, ...)
T1884 018:661.998   Data:  CB 1F 55 02
T1884 018:662.013    - DWT_CYCCNT
T1884 018:662.025 - 0.090ms returns 1
T1884 018:662.121 JLINK_IsHalted()
T1884 018:662.833 - 0.733ms returns FALSE
T1884 018:762.267 JLINK_IsHalted()
T1884 018:763.859 - 1.622ms returns FALSE
T1EB0 018:780.278   JLINK_SetBPEx(Addr = 0x000277CE, Type = 0xFFFFFFF2)
T1EB0 018:780.355   CPU is running
T1EB0 018:780.383   CPU is running
T1EB0 018:780.400    -- CPU_WriteMem(4 bytes @ 0xE0002000)
T1EB0 018:781.990   CPU is running
T1EB0 018:782.021    -- CPU_WriteMem(4 bytes @ 0xE000200C)
T1EB0 018:782.988 - 2.727ms returns 0x00000005
T1884 018:863.249 JLINK_IsHalted()
T1884 018:864.742 - 1.524ms returns FALSE
T1884 018:964.288 JLINK_IsHalted()
T1884 018:965.878 - 1.624ms returns FALSE
T1884 019:065.280 JLINK_IsHalted()
T1884 019:066.865 - 1.617ms returns FALSE
T1884 019:166.269 JLINK_IsHalted()
T1884 019:167.820 - 1.581ms returns FALSE
T1884 019:267.301   JLINK_ReadMemU32(0xE0001004, 0x0001 Items, ...)
T1884 019:267.384   Data:  CB 1F 55 02
T1884 019:267.398    - DWT_CYCCNT
T1884 019:267.410 - 0.115ms returns 1
T1884 019:267.514 JLINK_IsHalted()
T1884 019:269.078 - 1.574ms returns FALSE
T1884 019:368.288 JLINK_IsHalted()
T1884 019:369.845 - 1.573ms returns FALSE
T1884 019:469.302 JLINK_IsHalted()
T1884 019:470.798 - 1.513ms returns FALSE
T1884 019:570.301 JLINK_IsHalted()
T1884 019:571.781 - 1.497ms returns FALSE
T1884 019:671.257 JLINK_IsHalted()
T1884 019:672.694 - 1.457ms returns FALSE
T1884 019:772.303   JLINK_ReadMemU32(0xE0001004, 0x0001 Items, ...)
T1884 019:772.367   Data:  CB 1F 55 02
T1884 019:772.382    - DWT_CYCCNT
T1884 019:772.394 - 0.097ms returns 1
T1884 019:772.480 JLINK_IsHalted()
T1884 019:773.937 - 1.474ms returns FALSE
T1884 019:873.290 JLINK_IsHalted()
T1884 019:874.747 - 1.477ms returns FALSE
T1884 019:974.302 JLINK_IsHalted()
T1884 019:975.799 - 1.515ms returns FALSE
T1EB0 020:044.105 JLINK_SetResetType(JLINKARM_CM3_RESET_TYPE_NORMAL)
T1EB0 020:044.146 - 0.054ms returns JLINKARM_CM3_RESET_TYPE_NORMAL
T1EB0 020:044.165 JLINK_ResetNoHalt()
T1EB0 020:045.872   InitTarget() start
T1EB0 020:045.902    J-Link Script File: Executing InitTarget()
T1EB0 020:053.803   InitTarget() end
T1EB0 020:055.777   Found SW-DP with ID 0x2BA01477
T1EB0 020:066.795   AP map detection skipped. Manually configured AP map found.
T1EB0 020:066.874   AP[0]: AHB-AP (IDR: Not set)
T1EB0 020:084.880   AP[0]: Core found
T1EB0 020:084.928   AP[0]: AHB-AP ROM base: 0xE00FF000
